
T0FA4 000:617 SEGGER J-Link V4.86a Log File (0002ms, 0316ms total)
T0FA4 000:617 DLL Compiled: Jun 11 2014 17:22:49 (0003ms, 0317ms total)
T0FA4 000:617 Logging started @ 2016-01-12 15:52 (0006ms, 0320ms total)
T0FA4 000:624 JLINK_SetWarnOutHandler(...) (0001ms, 0322ms total)
T0FA4 000:625 JLINK_OpenEx(...)
Firmware: J-Link ARM-OB STM32 compiled Aug 22 2012 19:52:04
Hardware: V7.00
S/N: 20150608
Feature(s): RDI,FlashDL,FlashBP,JFlash,GDBFull  returns O.K. (0281ms, 0603ms total)
T0FA4 000:907 JLINK_SetErrorOutHandler(...) (0000ms, 0604ms total)
T0FA4 000:907 JLINK_ExecCommand("ProjectFile = "G:\Product\Application\toolbox\MDK-ARM\JLinkSettings.ini"", ...)Device "CORTEX-M4" selected (0 KB flash, 0 KB RAM).  returns 0x00 (0045ms, 0649ms total)
T0FA4 000:958 JLINK_ExecCommand("Device = STM32F401RETx", ...)Device "CORTEX-M4" selected (0 KB flash, 0 KB RAM).  returns 0x00 (0010ms, 0661ms total)
T0FA4 000:970 JLINK_ExecCommand("DisableConnectionTimeout", ...)  returns 0x01 (0000ms, 0662ms total)
T0FA4 000:971 JLINK_GetHardwareVersion()  returns 0x11170 (0000ms, 0662ms total)
T0FA4 000:971 JLINK_GetDLLVersion()  returns 48601 (0001ms, 0663ms total)
T0FA4 000:972 JLINK_GetFirmwareString(...) (0000ms, 0663ms total)
T0FA4 001:002 JLINK_GetDLLVersion()  returns 48601 (0001ms, 0664ms total)
T0FA4 001:003 JLINK_GetCompileDateTime() (0001ms, 0665ms total)
T0FA4 001:015 JLINK_GetFirmwareString(...) (0001ms, 0666ms total)
T0FA4 001:025 JLINK_GetHardwareVersion()  returns 0x11170 (0001ms, 0667ms total)
T0FA4 001:066 JLINK_TIF_Select(JLINKARM_TIF_SWD)  returns 0x00 (0017ms, 0684ms total)
T0FA4 001:083 JLINK_SetSpeed(5000) (0001ms, 0685ms total)
T0FA4 001:085 JLINK_GetId() >0x108 TIF>Found SWD-DP with ID 0x2BA01477 >0x0D TIF> >0x21 TIF> >0x0D TIF> >0x28 TIF> >0x0D TIF> >0x28 TIF> >0x0D TIF> >0x21 TIF> >0x0D TIF> >0x28 TIF> >0x0D TIF> >0x21 TIF> >0x0D TIF> >0x21 TIF> >0x0D TIF> >0x21 TIF> >0x0D TIF> >0x21 TIF> >0x0D TIF> >0x28 TIF> >0x0D TIF> >0x28 TIF> >0x0D TIF> >0x21 TIF> >0x0D TIF> >0x28 TIF> >0x0D TIF> >0x28 TIF> >0x0D TIF> >0x28 TIF> >0x0D TIF> >0x21 TIF> >0x0D TIF> >0x21 TIF> >0x0D TIF> >0x28 TIF> >0x0D TIF> >0x21 TIF> >0x0D TIF>
 >0x21 TIF>Found Cortex-M4 r0p1, Little endian. -- CPU_WriteMem(4 bytes @ 0xE0002000) -- CPU_ReadMem(4 bytes @ 0xE000EDF0) -- CPU_ReadMem(4 bytes @ 0xE0002000)FPUnit: 6 code (BP) slots and 2 literal slots -- CPU_ReadMem(4 bytes @ 0xE000EDFC) -- CPU_ReadMem(4 bytes @ 0xE0001000) -- CPU_WriteMem(4 bytes @ 0xE0001000) -- CPU_ReadMem(4 bytes @ 0xE00FF010)TPIU fitted. -- CPU_ReadMem(4 bytes @ 0xE00FF014)ETM fitted. -- CPU_ReadMem(4 bytes @ 0xE00FF018) >0x0D TIF> >0x21 TIF>  returns 0x2BA01477
 (0140ms, 0826ms total)
T0FA4 001:225 JLINK_GetDLLVersion()  returns 48601 (0001ms, 0827ms total)
T0FA4 001:226 JLINK_CORE_GetFound()  returns 0xE0000FF (0001ms, 0828ms total)
T0FA4 001:235 JLINK_ReadMem (0xE00FF000, 0x0020 Bytes, ...) -- CPU is running -- CPU_ReadMem(32 bytes @ 0xE00FF000) - Data: 03 F0 F0 FF 03 20 F0 FF 03 30 F0 FF 03 10 F0 FF ...  returns 0x00 (0004ms, 0833ms total)
T0FA4 001:239 JLINK_ReadMem (0xE000EFF0, 0x0010 Bytes, ...) -- CPU is running -- CPU_ReadMem(16 bytes @ 0xE000EFF0) - Data: 0D 00 00 00 E0 00 00 00 05 00 00 00 B1 00 00 00  returns 0x00 (0004ms, 0837ms total)
T0FA4 001:243 JLINK_ReadMem (0xE000EFD0, 0x0020 Bytes, ...) -- CPU is running -- CPU_ReadMem(32 bytes @ 0xE000EFD0) - Data: 04 00 00 00 00 00 00 00 00 00 00 00 00 00 00 00 ...  returns 0x00 (0003ms, 0840ms total)
T0FA4 001:246 JLINK_ReadMem (0xE0001FF0, 0x0010 Bytes, ...) -- CPU is running -- CPU_ReadMem(16 bytes @ 0xE0001FF0) - Data: 0D 00 00 00 E0 00 00 00 05 00 00 00 B1 00 00 00  returns 0x00 (0003ms, 0843ms total)
T0FA4 001:249 JLINK_ReadMem (0xE0001FD0, 0x0020 Bytes, ...) -- CPU is running -- CPU_ReadMem(32 bytes @ 0xE0001FD0) - Data: 04 00 00 00 00 00 00 00 00 00 00 00 00 00 00 00 ...  returns 0x00 (0002ms, 0845ms total)
T0FA4 001:251 JLINK_ReadMem (0xE0002FF0, 0x0010 Bytes, ...) -- CPU is running -- CPU_ReadMem(16 bytes @ 0xE0002FF0) - Data: 0D 00 00 00 E0 00 00 00 05 00 00 00 B1 00 00 00  returns 0x00 (0002ms, 0847ms total)
T0FA4 001:253 JLINK_ReadMem (0xE0002FD0, 0x0020 Bytes, ...) -- CPU is running -- CPU_ReadMem(32 bytes @ 0xE0002FD0) - Data: 04 00 00 00 00 00 00 00 00 00 00 00 00 00 00 00 ...  returns 0x00 (0002ms, 0849ms total)
T0FA4 001:255 JLINK_ReadMem (0xE0000FF0, 0x0010 Bytes, ...) -- CPU is running -- CPU_ReadMem(16 bytes @ 0xE0000FF0) - Data: 0D 00 00 00 E0 00 00 00 05 00 00 00 B1 00 00 00  returns 0x00 (0002ms, 0851ms total)
T0FA4 001:258 JLINK_ReadMem (0xE0000FD0, 0x0020 Bytes, ...) -- CPU is running -- CPU_ReadMem(32 bytes @ 0xE0000FD0) - Data: 04 00 00 00 00 00 00 00 00 00 00 00 00 00 00 00 ...  returns 0x00 (0002ms, 0854ms total)
T0FA4 001:260 JLINK_ReadMem (0xE0040FF0, 0x0010 Bytes, ...) -- CPU is running -- CPU_ReadMem(16 bytes @ 0xE0040FF0) - Data: 0D 00 00 00 90 00 00 00 05 00 00 00 B1 00 00 00  returns 0x00 (0002ms, 0856ms total)
T0FA4 001:262 JLINK_ReadMem (0xE0040FD0, 0x0020 Bytes, ...) -- CPU is running -- CPU_ReadMem(32 bytes @ 0xE0040FD0) - Data: 04 00 00 00 00 00 00 00 00 00 00 00 00 00 00 00 ...  returns 0x00 (0002ms, 0858ms total)
T0FA4 001:264 JLINK_ReadMem (0xE0041FF0, 0x0010 Bytes, ...) -- CPU is running -- CPU_ReadMem(16 bytes @ 0xE0041FF0) - Data: 0D 00 00 00 90 00 00 00 05 00 00 00 B1 00 00 00  returns 0x00 (0002ms, 0860ms total)
T0FA4 001:266 JLINK_ReadMem (0xE0041FD0, 0x0020 Bytes, ...) -- CPU is running -- CPU_ReadMem(32 bytes @ 0xE0041FD0) - Data: 04 00 00 00 00 00 00 00 00 00 00 00 00 00 00 00 ...  returns 0x00 (0002ms, 0862ms total)
T0FA4 001:268 JLINK_ReadMemU32(0xE000EF40, 0x0001 Items, ...) -- CPU is running -- CPU_ReadMem(4 bytes @ 0xE000EF40) - Data: 21 00 11 10  returns 0x01 (0001ms, 0863ms total)
T0FA4 001:269 JLINK_ReadMemU32(0xE000EF44, 0x0001 Items, ...) -- CPU is running -- CPU_ReadMem(4 bytes @ 0xE000EF44) - Data: 11 00 00 11  returns 0x01 (0002ms, 0865ms total)
T0FA4 001:272 JLINK_ReadMemU32(0xE000ED00, 0x0001 Items, ...) -- CPU is running -- CPU_ReadMem(4 bytes @ 0xE000ED00) - Data: 41 C2 0F 41  returns 0x01 (0002ms, 0868ms total)
T0FA4 001:275 JLINK_SetResetType(JLINKARM_RESET_TYPE_NORMAL)  returns JLINKARM_RESET_TYPE_NORMAL (0001ms, 0870ms total)
T0FA4 001:276 JLINK_Reset() -- CPU is running -- CPU_WriteMem(4 bytes @ 0xE000EDF0) -- CPU is running -- CPU_WriteMem(4 bytes @ 0xE000EDFC) >0x35 TIF> -- CPU is running -- CPU_WriteMem(4 bytes @ 0xE000ED0C) -- CPU is running -- CPU_ReadMem(4 bytes @ 0xE000EDF0) -- CPU is running -- CPU_ReadMem(4 bytes @ 0xE000EDF0) -- CPU is running -- CPU_WriteMem(4 bytes @ 0xE000EDF0) -- CPU is running -- CPU_WriteMem(4 bytes @ 0xE000EDFC) -- CPU is running -- CPU_ReadMem(4 bytes @ 0xE000EDF0)
 -- CPU_WriteMem(4 bytes @ 0xE0002000) -- CPU_ReadMem(4 bytes @ 0xE000EDFC) -- CPU_ReadMem(4 bytes @ 0xE0001000) (0038ms, 0908ms total)
T0FA4 001:315 JLINK_Halt()  returns 0x00 (0000ms, 0909ms total)
T0FA4 001:315 JLINK_IsHalted()  returns TRUE (0001ms, 0910ms total)
T0FA4 001:316 JLINK_ReadMemU32(0xE000EDF0, 0x0001 Items, ...) -- CPU_ReadMem(4 bytes @ 0xE000EDF0) - Data: 03 00 03 00  returns 0x01 (0001ms, 0910ms total)
T0FA4 001:317 JLINK_WriteU32(0xE000EDF0, 0xA05F0003) -- CPU_WriteMem(4 bytes @ 0xE000EDF0)  returns 0x00 (0002ms, 0912ms total)
T0FA4 001:319 JLINK_WriteU32(0xE000EDFC, 0x01000000) -- CPU_WriteMem(4 bytes @ 0xE000EDFC)  returns 0x00 (0001ms, 0913ms total)
T0FA4 001:352 JLINK_GetHWStatus(...)  returns 0x00 (0008ms, 0921ms total)
T0FA4 001:382 JLINK_GetNumBPUnits(Type = 0xFFFFFF00)  returns 0x06 (0002ms, 0924ms total)
T0FA4 001:384 JLINK_GetNumBPUnits(Type = 0xF0)  returns 0x2000 (0000ms, 0924ms total)
T0FA4 001:384 JLINK_GetNumWPUnits()  returns 0x04 (0001ms, 0925ms total)
T0FA4 001:413 JLINK_GetSpeed()  returns 0xFA0 (0002ms, 0927ms total)
T0FA4 001:436 JLINK_ReadMemU32(0xE000E004, 0x0001 Items, ...) -- CPU_ReadMem(4 bytes @ 0xE000E004) - Data: 02 00 00 00  returns 0x01 (0007ms, 0935ms total)
T0FA4 001:443 JLINK_ReadMemU32(0xE000E004, 0x0001 Items, ...) -- CPU_ReadMem(4 bytes @ 0xE000E004) - Data: 02 00 00 00  returns 0x01 (0001ms, 0936ms total)
T0FA4 001:444 JLINK_WriteMem(0xE0001000, 0x001C Bytes, ...) - Data: 01 00 00 00 00 00 00 00 00 00 00 00 00 00 00 00 ... -- CPU_WriteMem(28 bytes @ 0xE0001000)  returns 0x1C (0002ms, 0938ms total)
T0FA4 001:446 JLINK_ReadMem (0xE0001000, 0x001C Bytes, ...) -- CPU_ReadMem(28 bytes @ 0xE0001000) - Data: 01 00 00 40 00 00 00 00 00 00 00 00 00 00 00 00 ...  returns 0x00 (0002ms, 0940ms total)
T0FA4 001:448 JLINK_Halt()  returns 0x00 (0000ms, 0940ms total)
T0FA4 001:449 JLINK_IsHalted()  returns TRUE (0000ms, 0941ms total)
T0FA4 001:451 JLINK_WriteMem(0x20000000, 0x0188 Bytes, ...) - Data: 00 BE 0A E0 0D 78 2D 06 68 40 08 24 40 00 00 D3 ... -- CPU_WriteMem(392 bytes @ 0x20000000)  returns 0x188 (0008ms, 0949ms total)
T0FA4 001:460 JLINK_WriteReg(R0, 0x08000000)  returns 0x00 (0000ms, 0950ms total)
T0FA4 001:460 JLINK_WriteReg(R1, 0x00B71B00)  returns 0x00 (0000ms, 0950ms total)
T0FA4 001:460 JLINK_WriteReg(R2, 0x00000001)  returns 0x00 (0000ms, 0950ms total)
T0FA4 001:461 JLINK_WriteReg(R3, 0x00000000)  returns 0x00 (0000ms, 0951ms total)
T0FA4 001:461 JLINK_WriteReg(R4, 0x00000000)  returns 0x00 (0000ms, 0951ms total)
T0FA4 001:461 JLINK_WriteReg(R5, 0x00000000)  returns 0x00 (0001ms, 0952ms total)
T0FA4 001:462 JLINK_WriteReg(R6, 0x00000000)  returns 0x00 (0001ms, 0953ms total)
T0FA4 001:463 JLINK_WriteReg(R7, 0x00000000)  returns 0x00 (0000ms, 0953ms total)
T0FA4 001:463 JLINK_WriteReg(R8, 0x00000000)  returns 0x00 (0001ms, 0954ms total)
T0FA4 001:464 JLINK_WriteReg(R9, 0x20000184)  returns 0x00 (0000ms, 0954ms total)
T0FA4 001:464 JLINK_WriteReg(R10, 0x00000000)  returns 0x00 (0002ms, 0956ms total)
T0FA4 001:466 JLINK_WriteReg(R11, 0x00000000)  returns 0x00 (0000ms, 0956ms total)
T0FA4 001:466 JLINK_WriteReg(R12, 0x00000000)  returns 0x00 (0000ms, 0956ms total)
T0FA4 001:466 JLINK_WriteReg(R13 (SP), 0x20001000)  returns 0x00 (0001ms, 0957ms total)
T0FA4 001:467 JLINK_WriteReg(R14, 0x20000001)  returns 0x00 (0000ms, 0957ms total)
T0FA4 001:467 JLINK_WriteReg(R15 (PC), 0x2000005E)  returns 0x00 (0000ms, 0957ms total)
T0FA4 001:467 JLINK_WriteReg(XPSR, 0x01000000)  returns 0x00 (0001ms, 0958ms total)
T0FA4 001:468 JLINK_WriteReg(MSP, 0x20001000)  returns 0x00 (0000ms, 0958ms total)
T0FA4 001:468 JLINK_WriteReg(PSP, 0x20001000)  returns 0x00 (0000ms, 0958ms total)
T0FA4 001:468 JLINK_WriteReg(CFBP, 0x00000000)  returns 0x00 (0000ms, 0958ms total)
T0FA4 001:468 JLINK_SetBPEx(Addr = 0x20000000, Type = 0xFFFFFFF2) -- CPU_ReadMem(4 bytes @ 0x20000000) -- CPU_WriteMem(4 bytes @ 0x20000000) -- CPU_ReadMem(4 bytes @ 0x20000000) -- CPU_WriteMem(4 bytes @ 0x20000000) -- CPU_ReadMem(2 bytes @ 0x20000000)  returns 0x00000001 (0010ms, 0968ms total)
T0FA4 001:478 JLINK_Go() -- CPU_WriteMem(2 bytes @ 0x20000000) -- CPU_WriteMem(4 bytes @ 0xE0002008) -- CPU_WriteMem(4 bytes @ 0xE000200C) -- CPU_WriteMem(4 bytes @ 0xE0002010) -- CPU_WriteMem(4 bytes @ 0xE0002014) -- CPU_WriteMem(4 bytes @ 0xE0002018) -- CPU_WriteMem(4 bytes @ 0xE000201C) -- CPU_WriteMem(4 bytes @ 0xE0001004) (0019ms, 0987ms total)
T0FA4 001:497 JLINK_IsHalted() -- CPU_ReadMem(2 bytes @ 0x20000000)  returns TRUE (0008ms, 0995ms total)
T0FA4 001:505 JLINK_ReadReg(R15 (PC))  returns 0x20000000 (0000ms, 0987ms total)
T0FA4 001:505 JLINK_ClrBPEx(BPHandle = 0x00000001)  returns 0x00 (0001ms, 0988ms total)
T0FA4 001:506 JLINK_ReadReg(R0)  returns 0x00000000 (0000ms, 0988ms total)
T0FA4 001:506 JLINK_WriteReg(R0, 0x08000000)  returns 0x00 (0001ms, 0989ms total)
T0FA4 001:507 JLINK_WriteReg(R1, 0x00004000)  returns 0x00 (0000ms, 0989ms total)
T0FA4 001:507 JLINK_WriteReg(R2, 0x000000FF)  returns 0x00 (0000ms, 0989ms total)
T0FA4 001:507 JLINK_WriteReg(R3, 0x00000000)  returns 0x00 (0001ms, 0990ms total)
T0FA4 001:508 JLINK_WriteReg(R4, 0x00000000)  returns 0x00 (0000ms, 0990ms total)
T0FA4 001:508 JLINK_WriteReg(R5, 0x00000000)  returns 0x00 (0000ms, 0990ms total)
T0FA4 001:508 JLINK_WriteReg(R6, 0x00000000)  returns 0x00 (0000ms, 0990ms total)
T0FA4 001:508 JLINK_WriteReg(R7, 0x00000000)  returns 0x00 (0001ms, 0991ms total)
T0FA4 001:509 JLINK_WriteReg(R8, 0x00000000)  returns 0x00 (0000ms, 0991ms total)
T0FA4 001:509 JLINK_WriteReg(R9, 0x20000184)  returns 0x00 (0000ms, 0991ms total)
T0FA4 001:509 JLINK_WriteReg(R10, 0x00000000)  returns 0x00 (0001ms, 0992ms total)
T0FA4 001:510 JLINK_WriteReg(R11, 0x00000000)  returns 0x00 (0000ms, 0992ms total)
T0FA4 001:510 JLINK_WriteReg(R12, 0x00000000)  returns 0x00 (0001ms, 0993ms total)
T0FA4 001:511 JLINK_WriteReg(R13 (SP), 0x20001000)  returns 0x00 (0000ms, 0993ms total)
T0FA4 001:511 JLINK_WriteReg(R14, 0x20000001)  returns 0x00 (0001ms, 0994ms total)
T0FA4 001:512 JLINK_WriteReg(R15 (PC), 0x20000020)  returns 0x00 (0000ms, 0994ms total)
T0FA4 001:512 JLINK_WriteReg(XPSR, 0x01000000)  returns 0x00 (0000ms, 0994ms total)
T0FA4 001:512 JLINK_WriteReg(MSP, 0x20001000)  returns 0x00 (0000ms, 0994ms total)
T0FA4 001:512 JLINK_WriteReg(PSP, 0x20001000)  returns 0x00 (0001ms, 0995ms total)
T0FA4 001:513 JLINK_WriteReg(CFBP, 0x00000000)  returns 0x00 (0000ms, 0995ms total)
T0FA4 001:513 JLINK_SetBPEx(Addr = 0x20000000, Type = 0xFFFFFFF2)  returns 0x00000002 (0000ms, 0995ms total)
T0FA4 001:513 JLINK_Go() (0005ms, 1000ms total)
T0FA4 001:518 JLINK_IsHalted() -- CPU_ReadMem(2 bytes @ 0x20000000)  returns TRUE (0009ms, 1009ms total)
T0FA4 001:527 JLINK_ReadReg(R15 (PC))  returns 0x20000000 (0000ms, 1000ms total)
T0FA4 001:527 JLINK_ClrBPEx(BPHandle = 0x00000002)  returns 0x00 (0001ms, 1001ms total)
T0FA4 001:528 JLINK_ReadReg(R0)  returns 0x00000001 (0000ms, 1001ms total)
T0FA4 001:528 JLINK_WriteReg(R0, 0x08000000)  returns 0x00 (0000ms, 1001ms total)
T0FA4 001:528 JLINK_WriteReg(R1, 0x00004000)  returns 0x00 (0000ms, 1001ms total)
T0FA4 001:528 JLINK_WriteReg(R2, 0x000000FF)  returns 0x00 (0000ms, 1001ms total)
T0FA4 001:528 JLINK_WriteReg(R3, 0x00000000)  returns 0x00 (0001ms, 1002ms total)
T0FA4 001:529 JLINK_WriteReg(R4, 0x00000000)  returns 0x00 (0000ms, 1002ms total)
T0FA4 001:529 JLINK_WriteReg(R5, 0x00000000)  returns 0x00 (0000ms, 1002ms total)
T0FA4 001:529 JLINK_WriteReg(R6, 0x00000000)  returns 0x00 (0001ms, 1003ms total)
T0FA4 001:530 JLINK_WriteReg(R7, 0x00000000)  returns 0x00 (0000ms, 1003ms total)
T0FA4 001:530 JLINK_WriteReg(R8, 0x00000000)  returns 0x00 (0000ms, 1003ms total)
T0FA4 001:530 JLINK_WriteReg(R9, 0x20000184)  returns 0x00 (0001ms, 1004ms total)
T0FA4 001:531 JLINK_WriteReg(R10, 0x00000000)  returns 0x00 (0000ms, 1004ms total)
T0FA4 001:531 JLINK_WriteReg(R11, 0x00000000)  returns 0x00 (0000ms, 1004ms total)
T0FA4 001:531 JLINK_WriteReg(R12, 0x00000000)  returns 0x00 (0000ms, 1004ms total)
T0FA4 001:531 JLINK_WriteReg(R13 (SP), 0x20001000)  returns 0x00 (0001ms, 1005ms total)
T0FA4 001:532 JLINK_WriteReg(R14, 0x20000001)  returns 0x00 (0000ms, 1005ms total)
T0FA4 001:532 JLINK_WriteReg(R15 (PC), 0x200000C6)  returns 0x00 (0000ms, 1005ms total)
T0FA4 001:532 JLINK_WriteReg(XPSR, 0x01000000)  returns 0x00 (0000ms, 1005ms total)
T0FA4 001:532 JLINK_WriteReg(MSP, 0x20001000)  returns 0x00 (0001ms, 1006ms total)
T0FA4 001:533 JLINK_WriteReg(PSP, 0x20001000)  returns 0x00 (0000ms, 1006ms total)
T0FA4 001:533 JLINK_WriteReg(CFBP, 0x00000000)  returns 0x00 (0000ms, 1006ms total)
T0FA4 001:533 JLINK_SetBPEx(Addr = 0x20000000, Type = 0xFFFFFFF2)  returns 0x00000003 (0001ms, 1007ms total)
T0FA4 001:534 JLINK_Go() (0004ms, 1011ms total)
T0FA4 001:538 JLINK_IsHalted()  returns FALSE (0001ms, 1012ms total)
T0FA4 001:609 JLINK_IsHalted()  returns FALSE (0006ms, 1017ms total)
T0FA4 001:624 JLINK_IsHalted()  returns FALSE (0005ms, 1016ms total)
T0FA4 001:632 JLINK_IsHalted()  returns FALSE (0003ms, 1014ms total)
T0FA4 001:637 JLINK_IsHalted()  returns FALSE (0001ms, 1012ms total)
T0FA4 001:640 JLINK_IsHalted()  returns FALSE (0002ms, 1013ms total)
T0FA4 001:646 JLINK_IsHalted()  returns FALSE (0002ms, 1013ms total)
T0FA4 001:650 JLINK_IsHalted()  returns FALSE (0003ms, 1014ms total)
T0FA4 001:656 JLINK_IsHalted()  returns FALSE (0002ms, 1013ms total)
T0FA4 001:660 JLINK_IsHalted()  returns FALSE (0002ms, 1013ms total)
T0FA4 001:664 JLINK_IsHalted()  returns FALSE (0001ms, 1012ms total)
T0FA4 001:668 JLINK_IsHalted()  returns FALSE (0002ms, 1013ms total)
T0FA4 001:675 JLINK_IsHalted()  returns FALSE (0003ms, 1014ms total)
T0FA4 001:681 JLINK_IsHalted()  returns FALSE (0002ms, 1013ms total)
T0FA4 001:685 JLINK_IsHalted()  returns FALSE (0002ms, 1013ms total)
T0FA4 001:694 JLINK_IsHalted()  returns FALSE (0001ms, 1012ms total)
T0FA4 001:697 JLINK_IsHalted()  returns FALSE (0002ms, 1013ms total)
T0FA4 001:711 JLINK_IsHalted()  returns FALSE (0002ms, 1013ms total)
T0FA4 001:715 JLINK_IsHalted()  returns FALSE (0002ms, 1013ms total)
T0FA4 001:721 JLINK_IsHalted()  returns FALSE (0003ms, 1014ms total)
T0FA4 001:726 JLINK_IsHalted()  returns FALSE (0002ms, 1013ms total)
T0FA4 001:730 JLINK_IsHalted()  returns FALSE (0002ms, 1013ms total)
T0FA4 001:734 JLINK_IsHalted()  returns FALSE (0001ms, 1012ms total)
T0FA4 001:736 JLINK_IsHalted()  returns FALSE (0002ms, 1013ms total)
T0FA4 001:742 JLINK_IsHalted()  returns FALSE (0002ms, 1013ms total)
T0FA4 001:746 JLINK_IsHalted()  returns FALSE (0002ms, 1013ms total)
T0FA4 001:751 JLINK_IsHalted()  returns FALSE (0001ms, 1012ms total)
T0FA4 001:754 JLINK_IsHalted()  returns FALSE (0003ms, 1014ms total)
T0FA4 001:759 JLINK_IsHalted()  returns FALSE (0001ms, 1012ms total)
T0FA4 001:763 JLINK_IsHalted()  returns FALSE (0002ms, 1013ms total)
T0FA4 001:767 JLINK_IsHalted()  returns FALSE (0001ms, 1012ms total)
T0FA4 001:772 JLINK_IsHalted()  returns FALSE (0003ms, 1014ms total)
T0FA4 001:777 JLINK_IsHalted()  returns FALSE (0001ms, 1012ms total)
T0FA4 001:783 JLINK_IsHalted()  returns FALSE (0003ms, 1014ms total)
T0FA4 001:788 JLINK_IsHalted()  returns FALSE (0002ms, 1013ms total)
T0FA4 001:792 JLINK_IsHalted()  returns FALSE (0001ms, 1012ms total)
T0FA4 001:796 JLINK_IsHalted()  returns FALSE (0001ms, 1012ms total)
T0FA4 001:802 JLINK_IsHalted()  returns FALSE (0003ms, 1014ms total)
T0FA4 001:807 JLINK_IsHalted()  returns FALSE (0001ms, 1012ms total)
T0FA4 001:811 JLINK_IsHalted()  returns FALSE (0002ms, 1013ms total)
T0FA4 001:827 JLINK_IsHalted()  returns FALSE (0001ms, 1012ms total)
T0FA4 001:830 JLINK_IsHalted()  returns FALSE (0001ms, 1012ms total)
T0FA4 001:833 JLINK_IsHalted()  returns FALSE (0001ms, 1012ms total)
T0FA4 001:836 JLINK_IsHalted()  returns FALSE (0002ms, 1013ms total)
T0FA4 001:842 JLINK_IsHalted()  returns FALSE (0001ms, 1012ms total)
T0FA4 001:845 JLINK_IsHalted()  returns FALSE (0001ms, 1012ms total)
T0FA4 001:848 JLINK_IsHalted()  returns FALSE (0002ms, 1013ms total)
T0FA4 001:852 JLINK_IsHalted()  returns FALSE (0001ms, 1012ms total)
T0FA4 001:855 JLINK_IsHalted()  returns FALSE (0001ms, 1012ms total)
T0FA4 001:861 JLINK_IsHalted()  returns FALSE (0001ms, 1012ms total)
T0FA4 001:864 JLINK_IsHalted()  returns FALSE (0001ms, 1012ms total)
T0FA4 001:867 JLINK_IsHalted()  returns FALSE (0002ms, 1013ms total)
T0FA4 001:871 JLINK_IsHalted() -- CPU_ReadMem(2 bytes @ 0x20000000)  returns TRUE (0007ms, 1018ms total)
T0FA4 001:879 JLINK_ReadReg(R15 (PC))  returns 0x20000000 (0000ms, 1011ms total)
T0FA4 001:879 JLINK_ClrBPEx(BPHandle = 0x00000003)  returns 0x00 (0000ms, 1011ms total)
T0FA4 001:879 JLINK_ReadReg(R0)  returns 0x00000000 (0000ms, 1011ms total)
T0FA4 001:880 JLINK_WriteReg(R0, 0x08004000)  returns 0x00 (0000ms, 1012ms total)
T0FA4 001:880 JLINK_WriteReg(R1, 0x00004000)  returns 0x00 (0000ms, 1012ms total)
T0FA4 001:880 JLINK_WriteReg(R2, 0x000000FF)  returns 0x00 (0001ms, 1013ms total)
T0FA4 001:881 JLINK_WriteReg(R3, 0x00000000)  returns 0x00 (0001ms, 1014ms total)
T0FA4 001:882 JLINK_WriteReg(R4, 0x00000000)  returns 0x00 (0000ms, 1014ms total)
T0FA4 001:882 JLINK_WriteReg(R5, 0x00000000)  returns 0x00 (0000ms, 1014ms total)
T0FA4 001:882 JLINK_WriteReg(R6, 0x00000000)  returns 0x00 (0001ms, 1015ms total)
T0FA4 001:883 JLINK_WriteReg(R7, 0x00000000)  returns 0x00 (0000ms, 1015ms total)
T0FA4 001:883 JLINK_WriteReg(R8, 0x00000000)  returns 0x00 (0000ms, 1015ms total)
T0FA4 001:883 JLINK_WriteReg(R9, 0x20000184)  returns 0x00 (0000ms, 1015ms total)
T0FA4 001:883 JLINK_WriteReg(R10, 0x00000000)  returns 0x00 (0001ms, 1016ms total)
T0FA4 001:884 JLINK_WriteReg(R11, 0x00000000)  returns 0x00 (0000ms, 1016ms total)
T0FA4 001:884 JLINK_WriteReg(R12, 0x00000000)  returns 0x00 (0000ms, 1016ms total)
T0FA4 001:884 JLINK_WriteReg(R13 (SP), 0x20001000)  returns 0x00 (0000ms, 1016ms total)
T0FA4 001:885 JLINK_WriteReg(R14, 0x20000001)  returns 0x00 (0000ms, 1017ms total)
T0FA4 001:885 JLINK_WriteReg(R15 (PC), 0x20000020)  returns 0x00 (0000ms, 1017ms total)
T0FA4 001:885 JLINK_WriteReg(XPSR, 0x01000000)  returns 0x00 (0001ms, 1018ms total)
T0FA4 001:886 JLINK_WriteReg(MSP, 0x20001000)  returns 0x00 (0000ms, 1018ms total)
T0FA4 001:886 JLINK_WriteReg(PSP, 0x20001000)  returns 0x00 (0000ms, 1018ms total)
T0FA4 001:886 JLINK_WriteReg(CFBP, 0x00000000)  returns 0x00 (0001ms, 1019ms total)
T0FA4 001:887 JLINK_SetBPEx(Addr = 0x20000000, Type = 0xFFFFFFF2)  returns 0x00000004 (0000ms, 1019ms total)
T0FA4 001:887 JLINK_Go() (0005ms, 1024ms total)
T0FA4 001:892 JLINK_IsHalted() -- CPU_ReadMem(2 bytes @ 0x20000000)  returns TRUE (0008ms, 1032ms total)
T0FA4 001:900 JLINK_ReadReg(R15 (PC))  returns 0x20000000 (0001ms, 1025ms total)
T0FA4 001:901 JLINK_ClrBPEx(BPHandle = 0x00000004)  returns 0x00 (0001ms, 1026ms total)
T0FA4 001:902 JLINK_ReadReg(R0)  returns 0x00000001 (0001ms, 1027ms total)
T0FA4 001:903 JLINK_WriteReg(R0, 0x08004000)  returns 0x00 (0000ms, 1027ms total)
T0FA4 001:903 JLINK_WriteReg(R1, 0x00004000)  returns 0x00 (0000ms, 1027ms total)
T0FA4 001:903 JLINK_WriteReg(R2, 0x000000FF)  returns 0x00 (0001ms, 1028ms total)
T0FA4 001:904 JLINK_WriteReg(R3, 0x00000000)  returns 0x00 (0000ms, 1028ms total)
T0FA4 001:904 JLINK_WriteReg(R4, 0x00000000)  returns 0x00 (0000ms, 1028ms total)
T0FA4 001:904 JLINK_WriteReg(R5, 0x00000000)  returns 0x00 (0000ms, 1028ms total)
T0FA4 001:905 JLINK_WriteReg(R6, 0x00000000)  returns 0x00 (0000ms, 1029ms total)
T0FA4 001:905 JLINK_WriteReg(R7, 0x00000000)  returns 0x00 (0000ms, 1029ms total)
T0FA4 001:905 JLINK_WriteReg(R8, 0x00000000)  returns 0x00 (0000ms, 1029ms total)
T0FA4 001:905 JLINK_WriteReg(R9, 0x20000184)  returns 0x00 (0001ms, 1030ms total)
T0FA4 001:906 JLINK_WriteReg(R10, 0x00000000)  returns 0x00 (0000ms, 1030ms total)
T0FA4 001:906 JLINK_WriteReg(R11, 0x00000000)  returns 0x00 (0000ms, 1030ms total)
T0FA4 001:906 JLINK_WriteReg(R12, 0x00000000)  returns 0x00 (0000ms, 1030ms total)
T0FA4 001:906 JLINK_WriteReg(R13 (SP), 0x20001000)  returns 0x00 (0001ms, 1031ms total)
T0FA4 001:907 JLINK_WriteReg(R14, 0x20000001)  returns 0x00 (0000ms, 1031ms total)
T0FA4 001:907 JLINK_WriteReg(R15 (PC), 0x200000C6)  returns 0x00 (0000ms, 1031ms total)
T0FA4 001:907 JLINK_WriteReg(XPSR, 0x01000000)  returns 0x00 (0001ms, 1032ms total)
T0FA4 001:908 JLINK_WriteReg(MSP, 0x20001000)  returns 0x00 (0000ms, 1032ms total)
T0FA4 001:908 JLINK_WriteReg(PSP, 0x20001000)  returns 0x00 (0000ms, 1032ms total)
T0FA4 001:908 JLINK_WriteReg(CFBP, 0x00000000)  returns 0x00 (0001ms, 1033ms total)
T0FA4 001:909 JLINK_SetBPEx(Addr = 0x20000000, Type = 0xFFFFFFF2)  returns 0x00000005 (0000ms, 1033ms total)
T0FA4 001:909 JLINK_Go() (0005ms, 1038ms total)
T0FA4 001:915 JLINK_IsHalted()  returns FALSE (0001ms, 1040ms total)
T0FA4 001:929 JLINK_IsHalted()  returns FALSE (0003ms, 1042ms total)
T0FA4 001:934 JLINK_IsHalted()  returns FALSE (0002ms, 1041ms total)
T0FA4 001:942 JLINK_IsHalted()  returns FALSE (0002ms, 1041ms total)
T0FA4 001:946 JLINK_IsHalted()  returns FALSE (0001ms, 1040ms total)
T0FA4 001:949 JLINK_IsHalted()  returns FALSE (0001ms, 1040ms total)
T0FA4 001:952 JLINK_IsHalted()  returns FALSE (0001ms, 1040ms total)
T0FA4 001:955 JLINK_IsHalted()  returns FALSE (0003ms, 1042ms total)
T0FA4 001:962 JLINK_IsHalted()  returns FALSE (0003ms, 1042ms total)
T0FA4 001:969 JLINK_IsHalted()  returns FALSE (0001ms, 1040ms total)
T0FA4 001:972 JLINK_IsHalted()  returns FALSE (0002ms, 1041ms total)
T0FA4 001:976 JLINK_IsHalted()  returns FALSE (0001ms, 1040ms total)
T0FA4 001:979 JLINK_IsHalted()  returns FALSE (0001ms, 1040ms total)
T0FA4 001:982 JLINK_IsHalted()  returns FALSE (0002ms, 1041ms total)
T0FA4 001:987 JLINK_IsHalted()  returns FALSE (0002ms, 1041ms total)
T0FA4 001:991 JLINK_IsHalted()  returns FALSE (0001ms, 1040ms total)
T0FA4 001:994 JLINK_IsHalted()  returns FALSE (0001ms, 1040ms total)
T0FA4 002:001 JLINK_IsHalted()  returns FALSE (0003ms, 1042ms total)
T0FA4 002:007 JLINK_IsHalted()  returns FALSE (0001ms, 1040ms total)
T0FA4 002:011 JLINK_IsHalted()  returns FALSE (0002ms, 1041ms total)
T0FA4 002:015 JLINK_IsHalted()  returns FALSE (0001ms, 1040ms total)
T0FA4 002:018 JLINK_IsHalted()  returns FALSE (0003ms, 1042ms total)
T0FA4 002:025 JLINK_IsHalted()  returns FALSE (0001ms, 1040ms total)
T0FA4 002:036 JLINK_IsHalted()  returns FALSE (0003ms, 1042ms total)
T0FA4 002:042 JLINK_IsHalted()  returns FALSE (0002ms, 1041ms total)
T0FA4 002:046 JLINK_IsHalted()  returns FALSE (0002ms, 1041ms total)
T0FA4 002:052 JLINK_IsHalted()  returns FALSE (0003ms, 1042ms total)
T0FA4 002:057 JLINK_IsHalted()  returns FALSE (0002ms, 1041ms total)
T0FA4 002:063 JLINK_IsHalted()  returns FALSE (0003ms, 1042ms total)
T0FA4 002:068 JLINK_IsHalted()  returns FALSE (0001ms, 1040ms total)
T0FA4 002:071 JLINK_IsHalted()  returns FALSE (0001ms, 1040ms total)
T0FA4 002:074 JLINK_IsHalted()  returns FALSE (0002ms, 1041ms total)
T0FA4 002:078 JLINK_IsHalted()  returns FALSE (0003ms, 1042ms total)
T0FA4 002:086 JLINK_IsHalted()  returns FALSE (0001ms, 1040ms total)
T0FA4 002:089 JLINK_IsHalted()  returns FALSE (0003ms, 1042ms total)
T0FA4 002:097 JLINK_IsHalted()  returns FALSE (0001ms, 1040ms total)
T0FA4 002:100 JLINK_IsHalted()  returns FALSE (0001ms, 1040ms total)
T0FA4 002:103 JLINK_IsHalted()  returns FALSE (0001ms, 1040ms total)
T0FA4 002:110 JLINK_IsHalted()  returns FALSE (0002ms, 1041ms total)
T0FA4 002:115 JLINK_IsHalted()  returns FALSE (0001ms, 1040ms total)
T0FA4 002:119 JLINK_IsHalted()  returns FALSE (0002ms, 1041ms total)
T0FA4 002:124 JLINK_IsHalted()  returns FALSE (0003ms, 1042ms total)
T0FA4 002:131 JLINK_IsHalted()  returns FALSE (0003ms, 1042ms total)
T0FA4 002:136 JLINK_IsHalted()  returns FALSE (0002ms, 1041ms total)
T0FA4 002:148 JLINK_IsHalted()  returns FALSE (0003ms, 1042ms total)
T0FA4 002:153 JLINK_IsHalted()  returns FALSE (0001ms, 1040ms total)
T0FA4 002:158 JLINK_IsHalted()  returns FALSE (0002ms, 1041ms total)
T0FA4 002:162 JLINK_IsHalted()  returns FALSE (0002ms, 1041ms total)
T0FA4 002:175 JLINK_IsHalted()  returns FALSE (0002ms, 1041ms total)
T0FA4 002:179 JLINK_IsHalted()  returns FALSE (0001ms, 1040ms total)
T0FA4 002:187 JLINK_IsHalted()  returns FALSE (0003ms, 1042ms total)
T0FA4 002:192 JLINK_IsHalted()  returns FALSE (0002ms, 1041ms total)
T0FA4 002:195 JLINK_IsHalted()  returns FALSE (0002ms, 1041ms total)
T0FA4 002:199 JLINK_IsHalted()  returns FALSE (0001ms, 1040ms total)
T0FA4 002:203 JLINK_IsHalted()  returns FALSE (0001ms, 1040ms total)
T0FA4 002:210 JLINK_IsHalted()  returns FALSE (0003ms, 1042ms total)
T0FA4 002:215 JLINK_IsHalted()  returns FALSE (0001ms, 1040ms total)
T0FA4 002:221 JLINK_IsHalted()  returns FALSE (0004ms, 1043ms total)
T0FA4 002:227 JLINK_IsHalted()  returns FALSE (0003ms, 1042ms total)
T0FA4 002:232 JLINK_IsHalted()  returns FALSE (0003ms, 1042ms total)
T0FA4 002:236 JLINK_IsHalted()  returns FALSE (0002ms, 1041ms total)
T0FA4 002:242 JLINK_IsHalted()  returns FALSE (0002ms, 1041ms total)
T0FA4 002:246 JLINK_IsHalted()  returns FALSE (0002ms, 1041ms total)
T0FA4 002:250 JLINK_IsHalted() -- CPU_ReadMem(2 bytes @ 0x20000000)  returns TRUE (0008ms, 1047ms total)
T0FA4 002:258 JLINK_ReadReg(R15 (PC))  returns 0x20000000 (0000ms, 1039ms total)
T0FA4 002:258 JLINK_ClrBPEx(BPHandle = 0x00000005)  returns 0x00 (0001ms, 1040ms total)
T0FA4 002:259 JLINK_ReadReg(R0)  returns 0x00000000 (0000ms, 1040ms total)
T0FA4 002:259 JLINK_WriteReg(R0, 0x08008000)  returns 0x00 (0001ms, 1041ms total)
T0FA4 002:260 JLINK_WriteReg(R1, 0x00004000)  returns 0x00 (0000ms, 1041ms total)
T0FA4 002:260 JLINK_WriteReg(R2, 0x000000FF)  returns 0x00 (0001ms, 1042ms total)
T0FA4 002:261 JLINK_WriteReg(R3, 0x00000000)  returns 0x00 (0000ms, 1042ms total)
T0FA4 002:262 JLINK_WriteReg(R4, 0x00000000)  returns 0x00 (0000ms, 1043ms total)
T0FA4 002:262 JLINK_WriteReg(R5, 0x00000000)  returns 0x00 (0000ms, 1043ms total)
T0FA4 002:262 JLINK_WriteReg(R6, 0x00000000)  returns 0x00 (0000ms, 1043ms total)
T0FA4 002:262 JLINK_WriteReg(R7, 0x00000000)  returns 0x00 (0001ms, 1044ms total)
T0FA4 002:263 JLINK_WriteReg(R8, 0x00000000)  returns 0x00 (0000ms, 1044ms total)
T0FA4 002:263 JLINK_WriteReg(R9, 0x20000184)  returns 0x00 (0000ms, 1044ms total)
T0FA4 002:263 JLINK_WriteReg(R10, 0x00000000)  returns 0x00 (0001ms, 1045ms total)
T0FA4 002:264 JLINK_WriteReg(R11, 0x00000000)  returns 0x00 (0000ms, 1045ms total)
T0FA4 002:264 JLINK_WriteReg(R12, 0x00000000)  returns 0x00 (0000ms, 1045ms total)
T0FA4 002:264 JLINK_WriteReg(R13 (SP), 0x20001000)  returns 0x00 (0001ms, 1046ms total)
T0FA4 002:265 JLINK_WriteReg(R14, 0x20000001)  returns 0x00 (0000ms, 1046ms total)
T0FA4 002:265 JLINK_WriteReg(R15 (PC), 0x20000020)  returns 0x00 (0000ms, 1046ms total)
T0FA4 002:265 JLINK_WriteReg(XPSR, 0x01000000)  returns 0x00 (0000ms, 1046ms total)
T0FA4 002:265 JLINK_WriteReg(MSP, 0x20001000)  returns 0x00 (0001ms, 1047ms total)
T0FA4 002:266 JLINK_WriteReg(PSP, 0x20001000)  returns 0x00 (0000ms, 1047ms total)
T0FA4 002:266 JLINK_WriteReg(CFBP, 0x00000000)  returns 0x00 (0000ms, 1047ms total)
T0FA4 002:266 JLINK_SetBPEx(Addr = 0x20000000, Type = 0xFFFFFFF2)  returns 0x00000006 (0000ms, 1047ms total)
T0FA4 002:267 JLINK_Go() (0004ms, 1052ms total)
T0FA4 002:271 JLINK_IsHalted() -- CPU_ReadMem(2 bytes @ 0x20000000)  returns TRUE (0008ms, 1060ms total)
T0FA4 002:279 JLINK_ReadReg(R15 (PC))  returns 0x20000000 (0001ms, 1053ms total)
T0FA4 002:280 JLINK_ClrBPEx(BPHandle = 0x00000006)  returns 0x00 (0001ms, 1054ms total)
T0FA4 002:281 JLINK_ReadReg(R0)  returns 0x00000001 (0000ms, 1054ms total)
T0FA4 002:281 JLINK_WriteReg(R0, 0x08008000)  returns 0x00 (0001ms, 1055ms total)
T0FA4 002:282 JLINK_WriteReg(R1, 0x00004000)  returns 0x00 (0000ms, 1055ms total)
T0FA4 002:282 JLINK_WriteReg(R2, 0x000000FF)  returns 0x00 (0001ms, 1056ms total)
T0FA4 002:283 JLINK_WriteReg(R3, 0x00000000)  returns 0x00 (0000ms, 1056ms total)
T0FA4 002:283 JLINK_WriteReg(R4, 0x00000000)  returns 0x00 (0000ms, 1056ms total)
T0FA4 002:283 JLINK_WriteReg(R5, 0x00000000)  returns 0x00 (0000ms, 1056ms total)
T0FA4 002:283 JLINK_WriteReg(R6, 0x00000000)  returns 0x00 (0001ms, 1057ms total)
T0FA4 002:284 JLINK_WriteReg(R7, 0x00000000)  returns 0x00 (0000ms, 1057ms total)
T0FA4 002:284 JLINK_WriteReg(R8, 0x00000000)  returns 0x00 (0000ms, 1057ms total)
T0FA4 002:284 JLINK_WriteReg(R9, 0x20000184)  returns 0x00 (0001ms, 1058ms total)
T0FA4 002:285 JLINK_WriteReg(R10, 0x00000000)  returns 0x00 (0000ms, 1058ms total)
T0FA4 002:285 JLINK_WriteReg(R11, 0x00000000)  returns 0x00 (0000ms, 1058ms total)
T0FA4 002:285 JLINK_WriteReg(R12, 0x00000000)  returns 0x00 (0000ms, 1058ms total)
T0FA4 002:285 JLINK_WriteReg(R13 (SP), 0x20001000)  returns 0x00 (0001ms, 1059ms total)
T0FA4 002:286 JLINK_WriteReg(R14, 0x20000001)  returns 0x00 (0000ms, 1059ms total)
T0FA4 002:286 JLINK_WriteReg(R15 (PC), 0x200000C6)  returns 0x00 (0000ms, 1059ms total)
T0FA4 002:286 JLINK_WriteReg(XPSR, 0x01000000)  returns 0x00 (0000ms, 1059ms total)
T0FA4 002:286 JLINK_WriteReg(MSP, 0x20001000)  returns 0x00 (0001ms, 1060ms total)
T0FA4 002:287 JLINK_WriteReg(PSP, 0x20001000)  returns 0x00 (0000ms, 1060ms total)
T0FA4 002:287 JLINK_WriteReg(CFBP, 0x00000000)  returns 0x00 (0000ms, 1060ms total)
T0FA4 002:287 JLINK_SetBPEx(Addr = 0x20000000, Type = 0xFFFFFFF2)  returns 0x00000007 (0001ms, 1061ms total)
T0FA4 002:288 JLINK_Go() (0004ms, 1065ms total)
T0FA4 002:292 JLINK_IsHalted()  returns FALSE (0002ms, 1067ms total)
T0FA4 002:305 JLINK_IsHalted()  returns FALSE (0003ms, 1068ms total)
T0FA4 002:310 JLINK_IsHalted()  returns FALSE (0002ms, 1067ms total)
T0FA4 002:318 JLINK_IsHalted()  returns FALSE (0002ms, 1067ms total)
T0FA4 002:322 JLINK_IsHalted()  returns FALSE (0002ms, 1067ms total)
T0FA4 002:326 JLINK_IsHalted()  returns FALSE (0001ms, 1066ms total)
T0FA4 002:332 JLINK_IsHalted()  returns FALSE (0002ms, 1067ms total)
T0FA4 002:336 JLINK_IsHalted()  returns FALSE (0003ms, 1068ms total)
T0FA4 002:343 JLINK_IsHalted()  returns FALSE (0002ms, 1067ms total)
T0FA4 002:347 JLINK_IsHalted()  returns FALSE (0002ms, 1067ms total)
T0FA4 002:351 JLINK_IsHalted()  returns FALSE (0003ms, 1068ms total)
T0FA4 002:356 JLINK_IsHalted()  returns FALSE (0001ms, 1066ms total)
T0FA4 002:359 JLINK_IsHalted()  returns FALSE (0002ms, 1067ms total)
T0FA4 002:372 JLINK_IsHalted()  returns FALSE (0004ms, 1069ms total)
T0FA4 002:378 JLINK_IsHalted()  returns FALSE (0002ms, 1067ms total)
T0FA4 002:382 JLINK_IsHalted()  returns FALSE (0001ms, 1066ms total)
T0FA4 002:385 JLINK_IsHalted()  returns FALSE (0001ms, 1066ms total)
T0FA4 002:389 JLINK_IsHalted()  returns FALSE (0002ms, 1067ms total)
T0FA4 002:394 JLINK_IsHalted()  returns FALSE (0002ms, 1067ms total)
T0FA4 002:398 JLINK_IsHalted()  returns FALSE (0001ms, 1066ms total)
T0FA4 002:404 JLINK_IsHalted()  returns FALSE (0003ms, 1068ms total)
T0FA4 002:409 JLINK_IsHalted()  returns FALSE (0001ms, 1066ms total)
T0FA4 002:413 JLINK_IsHalted()  returns FALSE (0002ms, 1067ms total)
T0FA4 002:417 JLINK_IsHalted()  returns FALSE (0001ms, 1066ms total)
T0FA4 002:420 JLINK_IsHalted()  returns FALSE (0002ms, 1067ms total)
T0FA4 002:426 JLINK_IsHalted()  returns FALSE (0002ms, 1067ms total)
T0FA4 002:431 JLINK_IsHalted()  returns FALSE (0001ms, 1066ms total)
T0FA4 002:434 JLINK_IsHalted()  returns FALSE (0002ms, 1067ms total)
T0FA4 002:442 JLINK_IsHalted()  returns FALSE (0002ms, 1067ms total)
T0FA4 002:446 JLINK_IsHalted()  returns FALSE (0001ms, 1066ms total)
T0FA4 002:450 JLINK_IsHalted()  returns FALSE (0002ms, 1067ms total)
T0FA4 002:454 JLINK_IsHalted()  returns FALSE (0002ms, 1067ms total)
T0FA4 002:460 JLINK_IsHalted()  returns FALSE (0004ms, 1069ms total)
T0FA4 002:474 JLINK_IsHalted()  returns FALSE (0002ms, 1067ms total)
T0FA4 002:479 JLINK_IsHalted()  returns FALSE (0001ms, 1066ms total)
T0FA4 002:485 JLINK_IsHalted()  returns FALSE (0001ms, 1066ms total)
T0FA4 002:488 JLINK_IsHalted()  returns FALSE (0002ms, 1067ms total)
T0FA4 002:493 JLINK_IsHalted()  returns FALSE (0002ms, 1067ms total)
T0FA4 002:497 JLINK_IsHalted()  returns FALSE (0002ms, 1067ms total)
T0FA4 002:503 JLINK_IsHalted()  returns FALSE (0003ms, 1068ms total)
T0FA4 002:508 JLINK_IsHalted()  returns FALSE (0001ms, 1066ms total)
T0FA4 002:511 JLINK_IsHalted()  returns FALSE (0002ms, 1067ms total)
T0FA4 002:515 JLINK_IsHalted()  returns FALSE (0002ms, 1067ms total)
T0FA4 002:519 JLINK_IsHalted()  returns FALSE (0002ms, 1067ms total)
T0FA4 002:526 JLINK_IsHalted()  returns FALSE (0001ms, 1066ms total)
T0FA4 002:529 JLINK_IsHalted()  returns FALSE (0002ms, 1067ms total)
T0FA4 002:535 JLINK_IsHalted()  returns FALSE (0002ms, 1067ms total)
T0FA4 002:539 JLINK_IsHalted()  returns FALSE (0001ms, 1066ms total)
T0FA4 002:542 JLINK_IsHalted()  returns FALSE (0002ms, 1067ms total)
T0FA4 002:550 JLINK_IsHalted()  returns FALSE (0001ms, 1066ms total)
T0FA4 002:553 JLINK_IsHalted()  returns FALSE (0002ms, 1067ms total)
T0FA4 002:557 JLINK_IsHalted()  returns FALSE (0001ms, 1066ms total)
T0FA4 002:560 JLINK_IsHalted()  returns FALSE (0001ms, 1066ms total)
T0FA4 002:564 JLINK_IsHalted()  returns FALSE (0001ms, 1066ms total)
T0FA4 002:569 JLINK_IsHalted()  returns FALSE (0002ms, 1067ms total)
T0FA4 002:581 JLINK_IsHalted()  returns FALSE (0003ms, 1068ms total)
T0FA4 002:586 JLINK_IsHalted()  returns FALSE (0003ms, 1068ms total)
T0FA4 002:593 JLINK_IsHalted()  returns FALSE (0002ms, 1067ms total)
T0FA4 002:597 JLINK_IsHalted()  returns FALSE (0003ms, 1068ms total)
T0FA4 002:602 JLINK_IsHalted()  returns FALSE (0002ms, 1067ms total)
T0FA4 002:607 JLINK_IsHalted()  returns FALSE (0001ms, 1066ms total)
T0FA4 002:610 JLINK_IsHalted()  returns FALSE (0001ms, 1066ms total)
T0FA4 002:615 JLINK_IsHalted()  returns FALSE (0004ms, 1069ms total)
T0FA4 002:624 JLINK_IsHalted()  returns FALSE (0002ms, 1067ms total)
T0FA4 002:628 JLINK_IsHalted() -- CPU_ReadMem(2 bytes @ 0x20000000)  returns TRUE (0009ms, 1074ms total)
T0FA4 002:637 JLINK_ReadReg(R15 (PC))  returns 0x20000000 (0000ms, 1065ms total)
T0FA4 002:638 JLINK_ClrBPEx(BPHandle = 0x00000007)  returns 0x00 (0000ms, 1066ms total)
T0FA4 002:638 JLINK_ReadReg(R0)  returns 0x00000000 (0002ms, 1068ms total)
T0FA4 002:641 JLINK_WriteReg(R0, 0x00000001)  returns 0x00 (0002ms, 1071ms total)
T0FA4 002:643 JLINK_WriteReg(R1, 0x00004000)  returns 0x00 (0000ms, 1071ms total)
T0FA4 002:643 JLINK_WriteReg(R2, 0x000000FF)  returns 0x00 (0001ms, 1072ms total)
T0FA4 002:644 JLINK_WriteReg(R3, 0x00000000)  returns 0x00 (0000ms, 1072ms total)
T0FA4 002:645 JLINK_WriteReg(R4, 0x00000000)  returns 0x00 (0000ms, 1073ms total)
T0FA4 002:645 JLINK_WriteReg(R5, 0x00000000)  returns 0x00 (0000ms, 1073ms total)
T0FA4 002:645 JLINK_WriteReg(R6, 0x00000000)  returns 0x00 (0000ms, 1073ms total)
T0FA4 002:645 JLINK_WriteReg(R7, 0x00000000)  returns 0x00 (0001ms, 1074ms total)
T0FA4 002:646 JLINK_WriteReg(R8, 0x00000000)  returns 0x00 (0000ms, 1074ms total)
T0FA4 002:646 JLINK_WriteReg(R9, 0x20000184)  returns 0x00 (0000ms, 1074ms total)
T0FA4 002:646 JLINK_WriteReg(R10, 0x00000000)  returns 0x00 (0000ms, 1074ms total)
T0FA4 002:646 JLINK_WriteReg(R11, 0x00000000)  returns 0x00 (0001ms, 1075ms total)
T0FA4 002:647 JLINK_WriteReg(R12, 0x00000000)  returns 0x00 (0000ms, 1075ms total)
T0FA4 002:647 JLINK_WriteReg(R13 (SP), 0x20001000)  returns 0x00 (0000ms, 1075ms total)
T0FA4 002:647 JLINK_WriteReg(R14, 0x20000001)  returns 0x00 (0001ms, 1076ms total)
T0FA4 002:648 JLINK_WriteReg(R15 (PC), 0x2000008C)  returns 0x00 (0000ms, 1076ms total)
T0FA4 002:648 JLINK_WriteReg(XPSR, 0x01000000)  returns 0x00 (0000ms, 1076ms total)
T0FA4 002:648 JLINK_WriteReg(MSP, 0x20001000)  returns 0x00 (0000ms, 1076ms total)
T0FA4 002:648 JLINK_WriteReg(PSP, 0x20001000)  returns 0x00 (0001ms, 1077ms total)
T0FA4 002:649 JLINK_WriteReg(CFBP, 0x00000000)  returns 0x00 (0000ms, 1077ms total)
T0FA4 002:649 JLINK_SetBPEx(Addr = 0x20000000, Type = 0xFFFFFFF2)  returns 0x00000008 (0000ms, 1077ms total)
T0FA4 002:649 JLINK_Go() (0005ms, 1082ms total)
T0FA4 002:654 JLINK_IsHalted() -- CPU_ReadMem(2 bytes @ 0x20000000)  returns TRUE (0007ms, 1089ms total)
T0FA4 002:661 JLINK_ReadReg(R15 (PC))  returns 0x20000000 (0000ms, 1082ms total)
T0FA4 002:661 JLINK_ClrBPEx(BPHandle = 0x00000008)  returns 0x00 (0002ms, 1084ms total)
T0FA4 002:663 JLINK_ReadReg(R0)  returns 0x00000000 (0000ms, 1084ms total)
T0FA4 002:721 JLINK_WriteMem(0x20000000, 0x0188 Bytes, ...) - Data: 00 BE 0A E0 0D 78 2D 06 68 40 08 24 40 00 00 D3 ... -- CPU_WriteMem(392 bytes @ 0x20000000)  returns 0x188 (0012ms, 1096ms total)
T0FA4 002:733 JLINK_WriteReg(R0, 0x08000000)  returns 0x00 (0001ms, 1097ms total)
T0FA4 002:734 JLINK_WriteReg(R1, 0x00B71B00)  returns 0x00 (0000ms, 1097ms total)
T0FA4 002:735 JLINK_WriteReg(R2, 0x00000002)  returns 0x00 (0000ms, 1098ms total)
T0FA4 002:735 JLINK_WriteReg(R3, 0x00000000)  returns 0x00 (0000ms, 1098ms total)
T0FA4 002:735 JLINK_WriteReg(R4, 0x00000000)  returns 0x00 (0001ms, 1099ms total)
T0FA4 002:736 JLINK_WriteReg(R5, 0x00000000)  returns 0x00 (0000ms, 1099ms total)
T0FA4 002:736 JLINK_WriteReg(R6, 0x00000000)  returns 0x00 (0000ms, 1099ms total)
T0FA4 002:736 JLINK_WriteReg(R7, 0x00000000)  returns 0x00 (0000ms, 1099ms total)
T0FA4 002:736 JLINK_WriteReg(R8, 0x00000000)  returns 0x00 (0000ms, 1099ms total)
T0FA4 002:736 JLINK_WriteReg(R9, 0x20000184)  returns 0x00 (0000ms, 1099ms total)
T0FA4 002:737 JLINK_WriteReg(R10, 0x00000000)  returns 0x00 (0000ms, 1100ms total)
T0FA4 002:737 JLINK_WriteReg(R11, 0x00000000)  returns 0x00 (0000ms, 1100ms total)
T0FA4 002:737 JLINK_WriteReg(R12, 0x00000000)  returns 0x00 (0001ms, 1101ms total)
T0FA4 002:738 JLINK_WriteReg(R13 (SP), 0x20001000)  returns 0x00 (0001ms, 1102ms total)
T0FA4 002:739 JLINK_WriteReg(R14, 0x20000001)  returns 0x00 (0003ms, 1105ms total)
T0FA4 002:742 JLINK_WriteReg(R15 (PC), 0x2000005E)  returns 0x00 (0000ms, 1105ms total)
T0FA4 002:742 JLINK_WriteReg(XPSR, 0x01000000)  returns 0x00 (0001ms, 1106ms total)
T0FA4 002:743 JLINK_WriteReg(MSP, 0x20001000)  returns 0x00 (0000ms, 1106ms total)
T0FA4 002:744 JLINK_WriteReg(PSP, 0x20001000)  returns 0x00 (0000ms, 1107ms total)
T0FA4 002:744 JLINK_WriteReg(CFBP, 0x00000000)  returns 0x00 (0000ms, 1107ms total)
T0FA4 002:744 JLINK_SetBPEx(Addr = 0x20000000, Type = 0xFFFFFFF2) -- CPU_ReadMem(4 bytes @ 0x20000000) -- CPU_WriteMem(4 bytes @ 0x20000000) -- CPU_ReadMem(4 bytes @ 0x20000000) -- CPU_WriteMem(4 bytes @ 0x20000000) -- CPU_ReadMem(2 bytes @ 0x20000000)  returns 0x00000009 (0009ms, 1116ms total)
T0FA4 002:753 JLINK_Go() -- CPU_WriteMem(2 bytes @ 0x20000000) (0007ms, 1123ms total)
T0FA4 002:760 JLINK_IsHalted() -- CPU_ReadMem(2 bytes @ 0x20000000)  returns TRUE (0007ms, 1130ms total)
T0FA4 002:767 JLINK_ReadReg(R15 (PC))  returns 0x20000000 (0001ms, 1124ms total)
T0FA4 002:768 JLINK_ClrBPEx(BPHandle = 0x00000009)  returns 0x00 (0000ms, 1124ms total)
T0FA4 002:768 JLINK_ReadReg(R0)  returns 0x00000000 (0001ms, 1125ms total)
T0FA4 002:769 JLINK_WriteMem(0x20000188, 0x0400 Bytes, ...) - Data: 18 0C 00 20 A9 01 00 08 35 56 00 08 DD 3B 00 08 ... -- CPU_WriteMem(1024 bytes @ 0x20000188)  returns 0x400 (0014ms, 1139ms total)
T0FA4 002:783 JLINK_WriteReg(R0, 0x08000000)  returns 0x00 (0001ms, 1140ms total)
T0FA4 002:784 JLINK_WriteReg(R1, 0x00000400)  returns 0x00 (0000ms, 1140ms total)
T0FA4 002:784 JLINK_WriteReg(R2, 0x20000188)  returns 0x00 (0001ms, 1141ms total)
T0FA4 002:785 JLINK_WriteReg(R3, 0x00000000)  returns 0x00 (0000ms, 1141ms total)
T0FA4 002:785 JLINK_WriteReg(R4, 0x00000000)  returns 0x00 (0000ms, 1141ms total)
T0FA4 002:785 JLINK_WriteReg(R5, 0x00000000)  returns 0x00 (0001ms, 1142ms total)
T0FA4 002:786 JLINK_WriteReg(R6, 0x00000000)  returns 0x00 (0000ms, 1142ms total)
T0FA4 002:786 JLINK_WriteReg(R7, 0x00000000)  returns 0x00 (0000ms, 1142ms total)
T0FA4 002:786 JLINK_WriteReg(R8, 0x00000000)  returns 0x00 (0000ms, 1142ms total)
T0FA4 002:786 JLINK_WriteReg(R9, 0x20000184)  returns 0x00 (0001ms, 1143ms total)
T0FA4 002:787 JLINK_WriteReg(R10, 0x00000000)  returns 0x00 (0000ms, 1143ms total)
T0FA4 002:787 JLINK_WriteReg(R11, 0x00000000)  returns 0x00 (0000ms, 1143ms total)
T0FA4 002:787 JLINK_WriteReg(R12, 0x00000000)  returns 0x00 (0001ms, 1144ms total)
T0FA4 002:788 JLINK_WriteReg(R13 (SP), 0x20001000)  returns 0x00 (0000ms, 1144ms total)
T0FA4 002:788 JLINK_WriteReg(R14, 0x20000001)  returns 0x00 (0000ms, 1144ms total)
T0FA4 002:788 JLINK_WriteReg(R15 (PC), 0x20000112)  returns 0x00 (0000ms, 1144ms total)
T0FA4 002:788 JLINK_WriteReg(XPSR, 0x01000000)  returns 0x00 (0001ms, 1145ms total)
T0FA4 002:789 JLINK_WriteReg(MSP, 0x20001000)  returns 0x00 (0000ms, 1145ms total)
T0FA4 002:789 JLINK_WriteReg(PSP, 0x20001000)  returns 0x00 (0000ms, 1145ms total)
T0FA4 002:789 JLINK_WriteReg(CFBP, 0x00000000)  returns 0x00 (0001ms, 1146ms total)
T0FA4 002:790 JLINK_SetBPEx(Addr = 0x20000000, Type = 0xFFFFFFF2)  returns 0x0000000A (0002ms, 1148ms total)
T0FA4 002:792 JLINK_Go() (0005ms, 1153ms total)
T0FA4 002:797 JLINK_IsHalted()  returns FALSE (0001ms, 1154ms total)
T0FA4 002:813 JLINK_IsHalted() -- CPU_ReadMem(2 bytes @ 0x20000000)  returns TRUE (0006ms, 1159ms total)
T0FA4 002:819 JLINK_ReadReg(R15 (PC))  returns 0x20000000 (0001ms, 1154ms total)
T0FA4 002:820 JLINK_ClrBPEx(BPHandle = 0x0000000A)  returns 0x00 (0001ms, 1155ms total)
T0FA4 002:821 JLINK_ReadReg(R0)  returns 0x00000000 (0000ms, 1155ms total)
T0FA4 002:822 JLINK_WriteMem(0x20000188, 0x0400 Bytes, ...) - Data: 9A 42 01 DA 00 20 70 BD 40 F2 33 43 9A 42 A2 F2 ... -- CPU_WriteMem(1024 bytes @ 0x20000188)  returns 0x400 (0015ms, 1170ms total)
T0FA4 002:838 JLINK_WriteReg(R0, 0x08000400)  returns 0x00 (0000ms, 1171ms total)
T0FA4 002:838 JLINK_WriteReg(R1, 0x00000400)  returns 0x00 (0001ms, 1172ms total)
T0FA4 002:839 JLINK_WriteReg(R2, 0x20000188)  returns 0x00 (0000ms, 1172ms total)
T0FA4 002:839 JLINK_WriteReg(R3, 0x00000000)  returns 0x00 (0001ms, 1173ms total)
T0FA4 002:840 JLINK_WriteReg(R4, 0x00000000)  returns 0x00 (0000ms, 1173ms total)
T0FA4 002:840 JLINK_WriteReg(R5, 0x00000000)  returns 0x00 (0001ms, 1174ms total)
T0FA4 002:841 JLINK_WriteReg(R6, 0x00000000)  returns 0x00 (0001ms, 1175ms total)
T0FA4 002:842 JLINK_WriteReg(R7, 0x00000000)  returns 0x00 (0000ms, 1175ms total)
T0FA4 002:842 JLINK_WriteReg(R8, 0x00000000)  returns 0x00 (0001ms, 1176ms total)
T0FA4 002:843 JLINK_WriteReg(R9, 0x20000184)  returns 0x00 (0000ms, 1176ms total)
T0FA4 002:843 JLINK_WriteReg(R10, 0x00000000)  returns 0x00 (0000ms, 1176ms total)
T0FA4 002:843 JLINK_WriteReg(R11, 0x00000000)  returns 0x00 (0000ms, 1176ms total)
T0FA4 002:843 JLINK_WriteReg(R12, 0x00000000)  returns 0x00 (0001ms, 1177ms total)
T0FA4 002:844 JLINK_WriteReg(R13 (SP), 0x20001000)  returns 0x00 (0000ms, 1177ms total)
T0FA4 002:844 JLINK_WriteReg(R14, 0x20000001)  returns 0x00 (0000ms, 1177ms total)
T0FA4 002:844 JLINK_WriteReg(R15 (PC), 0x20000112)  returns 0x00 (0001ms, 1178ms total)
T0FA4 002:845 JLINK_WriteReg(XPSR, 0x01000000)  returns 0x00 (0000ms, 1178ms total)
T0FA4 002:845 JLINK_WriteReg(MSP, 0x20001000)  returns 0x00 (0000ms, 1178ms total)
T0FA4 002:845 JLINK_WriteReg(PSP, 0x20001000)  returns 0x00 (0001ms, 1179ms total)
T0FA4 002:846 JLINK_WriteReg(CFBP, 0x00000000)  returns 0x00 (0000ms, 1179ms total)
T0FA4 002:846 JLINK_SetBPEx(Addr = 0x20000000, Type = 0xFFFFFFF2)  returns 0x0000000B (0001ms, 1180ms total)
T0FA4 002:847 JLINK_Go() (0005ms, 1185ms total)
T0FA4 002:852 JLINK_IsHalted()  returns FALSE (0001ms, 1186ms total)
T0FA4 002:860 JLINK_IsHalted() -- CPU_ReadMem(2 bytes @ 0x20000000)  returns TRUE (0007ms, 1192ms total)
T0FA4 002:867 JLINK_ReadReg(R15 (PC))  returns 0x20000000 (0001ms, 1186ms total)
T0FA4 002:868 JLINK_ClrBPEx(BPHandle = 0x0000000B)  returns 0x00 (0001ms, 1187ms total)
T0FA4 002:869 JLINK_ReadReg(R0)  returns 0x00000000 (0000ms, 1187ms total)
T0FA4 002:869 JLINK_WriteMem(0x20000188, 0x0400 Bytes, ...) - Data: C2 F1 20 03 20 FA 03 F3 19 43 90 40 70 47 20 2A ... -- CPU_WriteMem(1024 bytes @ 0x20000188)  returns 0x400 (0015ms, 1202ms total)
T0FA4 002:884 JLINK_WriteReg(R0, 0x08000800)  returns 0x00 (0001ms, 1203ms total)
T0FA4 002:885 JLINK_WriteReg(R1, 0x00000400)  returns 0x00 (0001ms, 1204ms total)
T0FA4 002:886 JLINK_WriteReg(R2, 0x20000188)  returns 0x00 (0000ms, 1204ms total)
T0FA4 002:886 JLINK_WriteReg(R3, 0x00000000)  returns 0x00 (0000ms, 1204ms total)
T0FA4 002:886 JLINK_WriteReg(R4, 0x00000000)  returns 0x00 (0001ms, 1205ms total)
T0FA4 002:887 JLINK_WriteReg(R5, 0x00000000)  returns 0x00 (0000ms, 1205ms total)
T0FA4 002:887 JLINK_WriteReg(R6, 0x00000000)  returns 0x00 (0000ms, 1205ms total)
T0FA4 002:887 JLINK_WriteReg(R7, 0x00000000)  returns 0x00 (0001ms, 1206ms total)
T0FA4 002:888 JLINK_WriteReg(R8, 0x00000000)  returns 0x00 (0000ms, 1206ms total)
T0FA4 002:888 JLINK_WriteReg(R9, 0x20000184)  returns 0x00 (0000ms, 1206ms total)
T0FA4 002:888 JLINK_WriteReg(R10, 0x00000000)  returns 0x00 (0000ms, 1206ms total)
T0FA4 002:888 JLINK_WriteReg(R11, 0x00000000)  returns 0x00 (0001ms, 1207ms total)
T0FA4 002:889 JLINK_WriteReg(R12, 0x00000000)  returns 0x00 (0000ms, 1207ms total)
T0FA4 002:889 JLINK_WriteReg(R13 (SP), 0x20001000)  returns 0x00 (0000ms, 1207ms total)
T0FA4 002:889 JLINK_WriteReg(R14, 0x20000001)  returns 0x00 (0000ms, 1207ms total)
T0FA4 002:890 JLINK_WriteReg(R15 (PC), 0x20000112)  returns 0x00 (0000ms, 1208ms total)
T0FA4 002:890 JLINK_WriteReg(XPSR, 0x01000000)  returns 0x00 (0000ms, 1208ms total)
T0FA4 002:890 JLINK_WriteReg(MSP, 0x20001000)  returns 0x00 (0000ms, 1208ms total)
T0FA4 002:890 JLINK_WriteReg(PSP, 0x20001000)  returns 0x00 (0001ms, 1209ms total)
T0FA4 002:891 JLINK_WriteReg(CFBP, 0x00000000)  returns 0x00 (0000ms, 1209ms total)
T0FA4 002:891 JLINK_SetBPEx(Addr = 0x20000000, Type = 0xFFFFFFF2)  returns 0x0000000C (0000ms, 1209ms total)
T0FA4 002:891 JLINK_Go() (0004ms, 1213ms total)
T0FA4 002:896 JLINK_IsHalted()  returns FALSE (0001ms, 1215ms total)
T0FA4 002:903 JLINK_IsHalted() -- CPU_ReadMem(2 bytes @ 0x20000000)  returns TRUE (0007ms, 1221ms total)
T0FA4 002:910 JLINK_ReadReg(R15 (PC))  returns 0x20000000 (0000ms, 1214ms total)
T0FA4 002:910 JLINK_ClrBPEx(BPHandle = 0x0000000C)  returns 0x00 (0001ms, 1215ms total)
T0FA4 002:911 JLINK_ReadReg(R0)  returns 0x00000000 (0001ms, 1216ms total)
T0FA4 002:912 JLINK_WriteMem(0x20000188, 0x0400 Bytes, ...) - Data: 3B 49 08 60 9F ED 3B 0A 8D ED 03 0A 9F ED 3A 0A ... -- CPU_WriteMem(1024 bytes @ 0x20000188)  returns 0x400 (0016ms, 1232ms total)
T0FA4 002:928 JLINK_WriteReg(R0, 0x08000C00)  returns 0x00 (0000ms, 1232ms total)
T0FA4 002:929 JLINK_WriteReg(R1, 0x00000400)  returns 0x00 (0000ms, 1233ms total)
T0FA4 002:929 JLINK_WriteReg(R2, 0x20000188)  returns 0x00 (0000ms, 1233ms total)
T0FA4 002:929 JLINK_WriteReg(R3, 0x00000000)  returns 0x00 (0001ms, 1234ms total)
